T3CFC 000:019.160   SEGGER J-Link V6.86 Log File
T3CFC 000:019.345   DLL Compiled: Sep 24 2020 17:31:31
T3CFC 000:019.360   Logging started @ 2022-03-18 09:16
T3CFC 000:019.374 - 19.382ms
T3CFC 000:019.399 JLINK_SetWarnOutHandler(...)
T3CFC 000:019.415 - 0.022ms
T3CFC 000:019.432 JLINK_OpenEx(...)
T3CFC 000:021.171   Firmware: J-Link V9 compiled May  7 2021 16:26:12
T3CFC 000:021.388   Decompressing FW timestamp took 164 us
T3CFC 000:027.069   Hardware: V9.70
T3CFC 000:027.103   S/N: 59768859
T3CFC 000:027.119   OEM: SEGGER
T3CFC 000:027.134   Feature(s): RDI, GDB, FlashDL, FlashBP, JFlash
T3CFC 000:028.051   TELNET listener socket opened on port 19021
T3CFC 000:028.375   WEBSRV Starting webserver
T3CFC 000:028.639   WEBSRV Webserver running on local port 19080
T3CFC 000:028.660 - 9.233ms returns "O.K."
T3CFC 000:028.682 JLINK_GetEmuCaps()
T3CFC 000:028.693 - 0.016ms returns 0xB9FF7BBF
T3CFC 000:028.708 JLINK_TIF_GetAvailable(...)
T3CFC 000:028.867 - 0.168ms
T3CFC 000:028.888 JLINK_SetErrorOutHandler(...)
T3CFC 000:028.899 - 0.016ms
T3CFC 000:028.922 JLINK_ExecCommand("ProjectFile = "D:\WorkPlan\JN910_HwVersionC_20220303_WorkStep\MDK-ARM\JLinkSettings.ini"", ...). 
T3CFC 000:046.009 - 17.102ms returns 0x00
T3CFC 000:046.066 JLINK_ExecCommand("Device = STM32F429ZGTx", ...). 
T3CFC 000:046.603   Device "STM32F429ZG" selected.
T3CFC 000:047.410 - 1.341ms returns 0x00
T3CFC 000:047.441 JLINK_GetHardwareVersion()
T3CFC 000:047.452 - 0.017ms returns 97000
T3CFC 000:047.469 JLINK_GetDLLVersion()
T3CFC 000:047.480 - 0.015ms returns 68600
T3CFC 000:047.492 JLINK_GetOEMString(...)
T3CFC 000:047.505 JLINK_GetFirmwareString(...)
T3CFC 000:047.515 - 0.015ms
T3CFC 000:047.548 JLINK_GetDLLVersion()
T3CFC 000:047.559 - 0.016ms returns 68600
T3CFC 000:047.571 JLINK_GetCompileDateTime()
T3CFC 000:047.581 - 0.015ms
T3CFC 000:047.601 JLINK_GetFirmwareString(...)
T3CFC 000:047.611 - 0.015ms
T3CFC 000:047.627 JLINK_GetHardwareVersion()
T3CFC 000:047.638 - 0.015ms returns 97000
T3CFC 000:047.655 JLINK_GetSN()
T3CFC 000:047.665 - 0.016ms returns 59768859
T3CFC 000:047.681 JLINK_GetOEMString(...)
T3CFC 000:047.702 JLINK_TIF_Select(JLINKARM_TIF_SWD)
T3CFC 000:048.235 - 0.547ms returns 0x00
T3CFC 000:048.260 JLINK_HasError()
T3CFC 000:048.280 JLINK_SetSpeed(5000)
T3CFC 000:048.355 - 0.087ms
T3CFC 000:048.378 JLINK_GetId()
T3CFC 000:049.121   Found SW-DP with ID 0x2BA01477
T3CFC 000:059.801   Found SW-DP with ID 0x2BA01477
T3CFC 000:061.688   DPIDR: 0x2BA01477
T3CFC 000:061.723   Scanning AP map to find all available APs
T3CFC 000:062.260   AP[1]: Stopped AP scan as end of AP map has been reached
T3CFC 000:062.288   AP[0]: AHB-AP (IDR: 0x24770011)
T3CFC 000:062.309   Iterating through AP map to find AHB-AP to use
T3CFC 000:062.958   AP[0]: Core found
T3CFC 000:062.984   AP[0]: AHB-AP ROM base: 0xE00FF000
T3CFC 000:063.401   CPUID register: 0x410FC241. Implementer code: 0x41 (ARM)
T3CFC 000:063.430   Found Cortex-M4 r0p1, Little endian.
T3CFC 000:164.384   -- Max. mem block: 0x00010C20
T3CFC 000:164.541   CPU_ReadMem(4 bytes @ 0xE000EDF0)
T3CFC 000:165.219   CPU_ReadMem(4 bytes @ 0xE0002000)
T3CFC 000:165.746   FPUnit: 6 code (BP) slots and 2 literal slots
T3CFC 000:165.814   CPU_ReadMem(4 bytes @ 0xE000EDFC)
T3CFC 000:166.176   CPU_ReadMem(4 bytes @ 0xE0001000)
T3CFC 000:166.602   CPU_WriteMem(4 bytes @ 0xE0001000)
T3CFC 000:166.975   CPU_ReadMem(4 bytes @ 0xE000ED88)
T3CFC 000:167.345   CPU_WriteMem(4 bytes @ 0xE000ED88)
T3CFC 000:167.709   CPU_ReadMem(4 bytes @ 0xE000ED88)
T3CFC 000:168.057   CPU_WriteMem(4 bytes @ 0xE000ED88)
T3CFC 000:168.489   CoreSight components:
T3CFC 000:168.567   ROMTbl[0] @ E00FF000
T3CFC 000:168.621   CPU_ReadMem(64 bytes @ 0xE00FF000)
T3CFC 000:169.320   CPU_ReadMem(32 bytes @ 0xE000EFE0)
T3CFC 000:169.953   ROMTbl[0][0]: E000E000, CID: B105E00D, PID: 000BB00C SCS-M7
T3CFC 000:170.024   CPU_ReadMem(32 bytes @ 0xE0001FE0)
T3CFC 000:170.525   ROMTbl[0][1]: E0001000, CID: B105E00D, PID: 003BB002 DWT
T3CFC 000:170.575   CPU_ReadMem(32 bytes @ 0xE0002FE0)
T3CFC 000:171.072   ROMTbl[0][2]: E0002000, CID: B105E00D, PID: 002BB003 FPB
T3CFC 000:171.121   CPU_ReadMem(32 bytes @ 0xE0000FE0)
T3CFC 000:171.555   ROMTbl[0][3]: E0000000, CID: B105E00D, PID: 003BB001 ITM
T3CFC 000:171.604   CPU_ReadMem(32 bytes @ 0xE0040FE0)
T3CFC 000:172.069   ROMTbl[0][4]: E0040000, CID: B105900D, PID: 000BB9A1 TPIU
T3CFC 000:172.118   CPU_ReadMem(32 bytes @ 0xE0041FE0)
T3CFC 000:172.553   ROMTbl[0][5]: E0041000, CID: B105900D, PID: 000BB925 ETM
T3CFC 000:172.877 - 124.520ms returns 0x2BA01477
T3CFC 000:172.929 JLINK_GetDLLVersion()
T3CFC 000:172.954 - 0.037ms returns 68600
T3CFC 000:172.987 JLINK_CORE_GetFound()
T3CFC 000:173.012 - 0.037ms returns 0xE0000FF
T3CFC 000:173.044 JLINK_GetDebugInfo(0x100 = JLINKARM_ROM_TABLE_ADDR_INDEX)
T3CFC 000:173.071   Value=0xE00FF000
T3CFC 000:173.107 - 0.074ms returns 0
T3CFC 000:173.214 JLINK_GetDebugInfo(0x100 = JLINKARM_ROM_TABLE_ADDR_INDEX)
T3CFC 000:173.251   Value=0xE00FF000
T3CFC 000:173.287 - 0.085ms returns 0
T3CFC 000:173.316 JLINK_GetDebugInfo(0x101 = JLINKARM_DEBUG_INFO_ETM_ADDR_INDEX)
T3CFC 000:173.341   Value=0xE0041000
T3CFC 000:173.376 - 0.072ms returns 0
T3CFC 000:173.412 JLINK_ReadMemEx(0xE0041FD0, 0x20 Bytes, Flags = 0x02000004)
T3CFC 000:173.471   CPU_ReadMem(32 bytes @ 0xE0041FD0)
T3CFC 000:173.886   Data:  04 00 00 00 00 00 00 00 00 00 00 00 00 00 00 00 ...
T3CFC 000:173.932 - 0.532ms returns 32 (0x20)
T3CFC 000:173.965 JLINK_GetDebugInfo(0x102 = JLINKARM_DEBUG_INFO_MTB_ADDR_INDEX)
T3CFC 000:173.990   Value=0x00000000
T3CFC 000:174.024 - 0.071ms returns 0
T3CFC 000:174.052 JLINK_GetDebugInfo(0x103 = JLINKARM_DEBUG_INFO_TPIU_ADDR_INDEX)
T3CFC 000:174.077   Value=0xE0040000
T3CFC 000:174.111 - 0.070ms returns 0
T3CFC 000:174.139 JLINK_GetDebugInfo(0x104 = JLINKARM_DEBUG_INFO_ITM_ADDR_INDEX)
T3CFC 000:174.163   Value=0xE0000000
T3CFC 000:174.197 - 0.070ms returns 0
T3CFC 000:174.225 JLINK_GetDebugInfo(0x105 = JLINKARM_DEBUG_INFO_DWT_ADDR_INDEX)
T3CFC 000:174.249   Value=0xE0001000
T3CFC 000:174.283 - 0.070ms returns 0
T3CFC 000:174.311 JLINK_GetDebugInfo(0x106 = JLINKARM_DEBUG_INFO_FPB_ADDR_INDEX)
T3CFC 000:174.335   Value=0xE0002000
T3CFC 000:174.369 - 0.070ms returns 0
T3CFC 000:174.396 JLINK_GetDebugInfo(0x107 = JLINKARM_DEBUG_INFO_NVIC_ADDR_INDEX)
T3CFC 000:174.420   Value=0xE000E000
T3CFC 000:174.454 - 0.069ms returns 0
T3CFC 000:174.482 JLINK_GetDebugInfo(0x10C = JLINKARM_DEBUG_INFO_DBG_ADDR_INDEX)
T3CFC 000:174.506   Value=0xE000EDF0
T3CFC 000:174.540 - 0.070ms returns 0
T3CFC 000:174.568 JLINK_GetDebugInfo(0x01 = Unknown)
T3CFC 000:174.592   Value=0x00000001
T3CFC 000:174.626 - 0.071ms returns 0
T3CFC 000:174.662 JLINK_ReadMemU32(0xE000ED00, 0x1 Items)
T3CFC 000:174.696   CPU_ReadMem(4 bytes @ 0xE000ED00)
T3CFC 000:175.021   Data:  41 C2 0F 41
T3CFC 000:175.067   Debug reg: CPUID
T3CFC 000:175.103 - 0.453ms returns 1 (0x1)
T3CFC 000:175.136 JLINK_GetDebugInfo(0x10F = JLINKARM_DEBUG_INFO_HAS_CORTEX_M_SECURITY_EXT_INDEX)
T3CFC 000:175.162   Value=0x00000000
T3CFC 000:175.197 - 0.073ms returns 0
T3CFC 000:175.226 JLINK_HasError()
T3CFC 000:175.256 JLINK_SetResetType(JLINKARM_CM3_RESET_TYPE_NORMAL)
T3CFC 000:175.281 - 0.037ms returns JLINKARM_CM3_RESET_TYPE_NORMAL
T3CFC 000:175.324 JLINK_Reset()
T3CFC 000:175.360   CPU is running
T3CFC 000:175.391   CPU_WriteMem(4 bytes @ 0xE000EDF0)
T3CFC 000:175.666   CPU is running
T3CFC 000:175.705   CPU_WriteMem(4 bytes @ 0xE000EDFC)
T3CFC 000:176.011   Reset: Halt core after reset via DEMCR.VC_CORERESET.
T3CFC 000:176.387   Reset: Reset device via AIRCR.SYSRESETREQ.
T3CFC 000:176.425   CPU is running
T3CFC 000:176.456   CPU_WriteMem(4 bytes @ 0xE000ED0C)
T3CFC 000:229.409   CPU_ReadMem(4 bytes @ 0xE000EDF0)
T3CFC 000:230.120   CPU_ReadMem(4 bytes @ 0xE000EDF0)
T3CFC 000:230.636   CPU is running
T3CFC 000:230.758   CPU_WriteMem(4 bytes @ 0xE000EDF0)
T3CFC 000:231.232   CPU is running
T3CFC 000:231.393   CPU_WriteMem(4 bytes @ 0xE000EDFC)
T3CFC 000:237.531   CPU_ReadMem(4 bytes @ 0xE000EDF0)
T3CFC 000:240.280   CPU_WriteMem(4 bytes @ 0xE0002000)
T3CFC 000:240.814   CPU_ReadMem(4 bytes @ 0xE000EDFC)
T3CFC 000:241.321   CPU_ReadMem(4 bytes @ 0xE0001000)
T3CFC 000:241.837 - 66.560ms
T3CFC 000:241.946 JLINK_HasError()
T3CFC 000:242.151 JLINK_ReadReg(R15 (PC))
T3CFC 000:242.249 - 0.124ms returns 0x0800082C
T3CFC 000:242.313 JLINK_ReadReg(XPSR)
T3CFC 000:242.365 - 0.076ms returns 0x01000000
T3CFC 000:242.425 JLINK_Halt()
T3CFC 000:242.486 - 0.087ms returns 0x00
T3CFC 000:242.547 JLINK_ReadMemU32(0xE000EDF0, 0x1 Items)
T3CFC 000:242.615   CPU_ReadMem(4 bytes @ 0xE000EDF0)
T3CFC 000:243.062   Data:  03 00 03 00
T3CFC 000:243.159   Debug reg: DHCSR
T3CFC 000:243.232 - 0.710ms returns 1 (0x1)
T3CFC 000:243.311 JLINK_WriteU32_64(0xE000EDF0, 0xA05F0003)
T3CFC 000:243.370   Debug reg: DHCSR
T3CFC 000:243.508   CPU_WriteMem(4 bytes @ 0xE000EDF0)
T3CFC 000:244.075 - 0.835ms returns 0 (0x00000000)
T3CFC 000:244.206 JLINK_WriteU32_64(0xE000EDFC, 0x01000000)
T3CFC 000:244.277   Debug reg: DEMCR
T3CFC 000:244.430   CPU_WriteMem(4 bytes @ 0xE000EDFC)
T3CFC 000:245.008 - 0.860ms returns 0 (0x00000000)
T3CFC 000:245.224 JLINK_GetHWStatus(...)
T3CFC 000:245.610 - 0.435ms returns 0
T3CFC 000:245.798 JLINK_GetNumBPUnits(Type = 0xFFFFFF00)
T3CFC 000:245.858 - 0.085ms returns 0x06
T3CFC 000:245.916 JLINK_GetNumBPUnits(Type = 0xF0)
T3CFC 000:245.966 - 0.073ms returns 0x2000
T3CFC 000:246.023 JLINK_GetNumWPUnits()
T3CFC 000:246.072 - 0.073ms returns 4
T3CFC 000:246.180 JLINK_GetSpeed()
T3CFC 000:246.233 - 0.077ms returns 4000
T3CFC 000:246.323 JLINK_ReadMemU32(0xE000E004, 0x1 Items)
T3CFC 000:246.398   CPU_ReadMem(4 bytes @ 0xE000E004)
T3CFC 000:246.987   Data:  02 00 00 00
T3CFC 000:247.085 - 0.787ms returns 1 (0x1)
T3CFC 000:247.153 JLINK_ReadMemU32(0xE000E004, 0x1 Items)
T3CFC 000:247.223   CPU_ReadMem(4 bytes @ 0xE000E004)
T3CFC 000:247.731   Data:  02 00 00 00
T3CFC 000:247.826 - 0.698ms returns 1 (0x1)
T3CFC 000:247.894 JLINK_WriteMemEx(0xE0001000, 0x0000001C Bytes, Flags = 0x02000004)
T3CFC 000:247.948   Data:  01 00 00 00 00 00 00 00 00 00 00 00 00 00 00 00 ...
T3CFC 000:249.144   CPU_WriteMem(28 bytes @ 0xE0001000)
T3CFC 000:249.746 - 1.903ms returns 0x1C
T3CFC 000:249.845 JLINK_HasError()
T3CFC 000:249.907 JLINK_ReadReg(R15 (PC))
T3CFC 000:249.968 - 0.091ms returns 0x0800082C
T3CFC 000:250.066 JLINK_ReadReg(XPSR)
T3CFC 000:250.172 - 0.136ms returns 0x01000000
T3CFC 000:260.703 JLINK_ReadMemEx(0xE0001004, 0x4 Bytes, Flags = 0x02000000)
T3CFC 000:260.760   Data:  00 00 00 00
T3CFC 000:260.790   Debug reg: DWT_CYCCNT
T3CFC 000:260.818 - 0.125ms returns 4 (0x4)
T3CFC 000:395.210 JLINK_HasError()
T3CFC 000:395.268 JLINK_SetResetType(JLINKARM_CM3_RESET_TYPE_NORMAL)
T3CFC 000:395.288 - 0.030ms returns JLINKARM_CM3_RESET_TYPE_NORMAL
T3CFC 000:395.312 JLINK_Reset()
T3CFC 000:395.346   CPU_WriteMem(4 bytes @ 0xE000EDF0)
T3CFC 000:395.652   CPU_WriteMem(4 bytes @ 0xE000EDFC)
T3CFC 000:395.971   Reset: Halt core after reset via DEMCR.VC_CORERESET.
T3CFC 000:396.436   Reset: Reset device via AIRCR.SYSRESETREQ.
T3CFC 000:396.479   CPU_WriteMem(4 bytes @ 0xE000ED0C)
T3CFC 000:449.678   CPU_ReadMem(4 bytes @ 0xE000EDF0)
T3CFC 000:450.261   CPU_ReadMem(4 bytes @ 0xE000EDF0)
T3CFC 000:450.837   CPU_WriteMem(4 bytes @ 0xE000EDF0)
T3CFC 000:451.352   CPU_WriteMem(4 bytes @ 0xE000EDFC)
T3CFC 000:457.939   CPU_ReadMem(4 bytes @ 0xE000EDF0)
T3CFC 000:460.638   CPU_WriteMem(4 bytes @ 0xE0002000)
T3CFC 000:461.115   CPU_ReadMem(4 bytes @ 0xE000EDFC)
T3CFC 000:461.600   CPU_ReadMem(4 bytes @ 0xE0001000)
T3CFC 000:462.100 - 66.837ms
T3CFC 000:462.406 JLINK_HasError()
T3CFC 000:462.478 JLINK_ReadReg(R15 (PC))
T3CFC 000:462.541 - 0.090ms returns 0x0800082C
T3CFC 000:462.604 JLINK_ReadReg(XPSR)
T3CFC 000:462.658 - 0.079ms returns 0x01000000
T3CFC 003:134.493 JLINK_HasError()
T3CFC 003:134.530 JLINK_ReadReg(R0)
T3CFC 003:134.767 - 0.253ms returns 0x00000000
T3CFC 003:134.795 JLINK_ReadReg(R1)
T3CFC 003:134.807 - 0.018ms returns 0x00000000
T3CFC 003:134.820 JLINK_ReadReg(R2)
T3CFC 003:134.831 - 0.016ms returns 0x00000000
T3CFC 003:134.855 JLINK_ReadReg(R3)
T3CFC 003:134.869 - 0.019ms returns 0x00000000
T3CFC 003:134.881 JLINK_ReadReg(R4)
T3CFC 003:134.892 - 0.016ms returns 0x00000000
T3CFC 003:134.904 JLINK_ReadReg(R5)
T3CFC 003:134.915 - 0.015ms returns 0x00000000
T3CFC 003:134.927 JLINK_ReadReg(R6)
T3CFC 003:134.938 - 0.015ms returns 0x00000000
T3CFC 003:134.950 JLINK_ReadReg(R7)
T3CFC 003:134.960 - 0.015ms returns 0x00000000
T3CFC 003:134.973 JLINK_ReadReg(R8)
T3CFC 003:134.991 - 0.023ms returns 0x00000000
T3CFC 003:135.003 JLINK_ReadReg(R9)
T3CFC 003:135.014 - 0.015ms returns 0x00000000
T3CFC 003:135.026 JLINK_ReadReg(R10)
T3CFC 003:135.036 - 0.015ms returns 0x00000000
T3CFC 003:135.049 JLINK_ReadReg(R11)
T3CFC 003:135.059 - 0.015ms returns 0x00000000
T3CFC 003:135.071 JLINK_ReadReg(R12)
T3CFC 003:135.082 - 0.015ms returns 0x00000000
T3CFC 003:135.094 JLINK_ReadReg(R13 (SP))
T3CFC 003:135.105 - 0.016ms returns 0x20011020
T3CFC 003:135.117 JLINK_ReadReg(R14)
T3CFC 003:135.128 - 0.015ms returns 0xFFFFFFFF
T3CFC 003:135.140 JLINK_ReadReg(R15 (PC))
T3CFC 003:135.151 - 0.016ms returns 0x0800082C
T3CFC 003:135.163 JLINK_ReadReg(XPSR)
T3CFC 003:135.173 - 0.016ms returns 0x01000000
T3CFC 003:135.186 JLINK_ReadReg(MSP)
T3CFC 003:135.196 - 0.015ms returns 0x20011020
T3CFC 003:135.209 JLINK_ReadReg(PSP)
T3CFC 003:135.219 - 0.015ms returns 0x00000000
T3CFC 003:135.237 JLINK_ReadReg(CFBP)
T3CFC 003:135.248 - 0.016ms returns 0x00000000
T3CFC 003:135.261 JLINK_ReadReg(FPSCR)
T3CFC 003:138.075 - 2.824ms returns 0x00000000
T3CFC 003:138.095 JLINK_ReadReg(FPS0)
T3CFC 003:138.107 - 0.018ms returns 0x00000000
T3CFC 003:138.120 JLINK_ReadReg(FPS1)
T3CFC 003:138.131 - 0.016ms returns 0x00000000
T3CFC 003:138.143 JLINK_ReadReg(FPS2)
T3CFC 003:138.155 - 0.016ms returns 0x00000000
T3CFC 003:138.167 JLINK_ReadReg(FPS3)
T3CFC 003:138.178 - 0.016ms returns 0x00000000
T3CFC 003:138.191 JLINK_ReadReg(FPS4)
T3CFC 003:138.201 - 0.016ms returns 0x00000000
T3CFC 003:138.214 JLINK_ReadReg(FPS5)
T3CFC 003:138.229 - 0.020ms returns 0x00000000
T3CFC 003:138.241 JLINK_ReadReg(FPS6)
T3CFC 003:138.252 - 0.016ms returns 0x00000000
T3CFC 003:138.264 JLINK_ReadReg(FPS7)
T3CFC 003:138.275 - 0.015ms returns 0x00000000
T3CFC 003:138.287 JLINK_ReadReg(FPS8)
T3CFC 003:138.298 - 0.015ms returns 0x00000000
T3CFC 003:138.310 JLINK_ReadReg(FPS9)
T3CFC 003:138.321 - 0.015ms returns 0x00000000
T3CFC 003:138.333 JLINK_ReadReg(FPS10)
T3CFC 003:138.344 - 0.016ms returns 0x00000000
T3CFC 003:138.356 JLINK_ReadReg(FPS11)
T3CFC 003:138.366 - 0.015ms returns 0x00000000
T3CFC 003:138.378 JLINK_ReadReg(FPS12)
T3CFC 003:138.389 - 0.015ms returns 0x00000000
T3CFC 003:138.401 JLINK_ReadReg(FPS13)
T3CFC 003:138.412 - 0.015ms returns 0x00000000
T3CFC 003:138.424 JLINK_ReadReg(FPS14)
T3CFC 003:138.434 - 0.015ms returns 0x00000000
T3CFC 003:138.447 JLINK_ReadReg(FPS15)
T3CFC 003:138.457 - 0.015ms returns 0x00000000
T3CFC 003:138.469 JLINK_ReadReg(FPS16)
T3CFC 003:138.480 - 0.015ms returns 0x00000000
T3CFC 003:138.492 JLINK_ReadReg(FPS17)
T3CFC 003:138.503 - 0.015ms returns 0x00000000
T3CFC 003:138.515 JLINK_ReadReg(FPS18)
T3CFC 003:138.526 - 0.015ms returns 0x00000000
T3CFC 003:138.538 JLINK_ReadReg(FPS19)
T3CFC 003:138.548 - 0.015ms returns 0x00000000
T3CFC 003:138.561 JLINK_ReadReg(FPS20)
T3CFC 003:138.571 - 0.015ms returns 0x00000000
T3CFC 003:138.583 JLINK_ReadReg(FPS21)
T3CFC 003:138.594 - 0.015ms returns 0x00000000
T3CFC 003:138.606 JLINK_ReadReg(FPS22)
T3CFC 003:138.617 - 0.015ms returns 0x00000000
T3CFC 003:138.629 JLINK_ReadReg(FPS23)
T3CFC 003:138.639 - 0.015ms returns 0x00000000
T3CFC 003:138.651 JLINK_ReadReg(FPS24)
T3CFC 003:138.662 - 0.015ms returns 0x00000000
T3CFC 003:138.674 JLINK_ReadReg(FPS25)
T3CFC 003:138.685 - 0.015ms returns 0x00000000
T3CFC 003:138.697 JLINK_ReadReg(FPS26)
T3CFC 003:138.707 - 0.015ms returns 0x00000000
T3CFC 003:138.720 JLINK_ReadReg(FPS27)
T3CFC 003:138.730 - 0.015ms returns 0x00000000
T3CFC 003:138.742 JLINK_ReadReg(FPS28)
T3CFC 003:138.753 - 0.015ms returns 0x00000000
T3CFC 003:138.767 JLINK_ReadReg(FPS29)
T3CFC 003:138.779 - 0.017ms returns 0x00000000
T3CFC 003:138.791 JLINK_ReadReg(FPS30)
T3CFC 003:138.802 - 0.015ms returns 0x00000000
T3CFC 003:138.814 JLINK_ReadReg(FPS31)
T3CFC 003:138.825 - 0.015ms returns 0x00000000
T3CFC 003:160.039 JLINK_ReadMemEx(0x2000856C, 0x2 Bytes, Flags = 0x02000000)
T3CFC 003:160.079   CPU_ReadMem(64 bytes @ 0x20008540)
T3CFC 003:160.657    -- Updating C cache (64 bytes @ 0x20008540)
T3CFC 003:160.679    -- Read from C cache (2 bytes @ 0x2000856C)
T3CFC 003:160.696   Data:  08 0A
T3CFC 003:160.713 - 0.679ms returns 2 (0x2)
T3CFC 003:178.380 JLINK_ReadMemEx(0x20009848, 0xA Bytes, Flags = 0x02000000)
T3CFC 003:178.421   CPU_ReadMem(64 bytes @ 0x20009840)
T3CFC 003:179.028    -- Updating C cache (64 bytes @ 0x20009840)
T3CFC 003:179.053    -- Read from C cache (10 bytes @ 0x20009848)
T3CFC 003:179.069   Data:  00 00 00 00 00 00 00 00 00 00
T3CFC 003:179.084 - 0.709ms returns 10 (0xA)
T3CFC 003:186.967 JLINK_ReadMemEx(0x2000856E, 0x2 Bytes, Flags = 0x02000000)
T3CFC 003:187.008    -- Read from C cache (2 bytes @ 0x2000856E)
T3CFC 003:187.026   Data:  09 0B
T3CFC 003:187.043 - 0.081ms returns 2 (0x2)
T3CFC 003:194.254 JLINK_ReadMemEx(0x20008570, 0x1 Bytes, Flags = 0x02000000)
T3CFC 003:194.286    -- Read from C cache (1 bytes @ 0x20008570)
T3CFC 003:194.303   Data:  FF
T3CFC 003:194.319 - 0.070ms returns 1 (0x1)
T3CFC 003:194.703 JLINK_ReadMemEx(0x20008570, 0x1 Bytes, Flags = 0x02000000)
T3CFC 003:194.719    -- Read from C cache (1 bytes @ 0x20008570)
T3CFC 003:194.736   Data:  FF
T3CFC 003:194.753 - 0.055ms returns 1 (0x1)
T3CFC 003:194.782 JLINK_ReadMemEx(0x20008570, 0x1 Bytes, Flags = 0x02000000)
T3CFC 003:194.796    -- Read from C cache (1 bytes @ 0x20008570)
T3CFC 003:194.811   Data:  FF
T3CFC 003:194.826 - 0.049ms returns 1 (0x1)
TBE24 003:309.841 JLINK_ReadMemEx(0x0800082C, 0x2 Bytes, Flags = 0x02000000)
TBE24 003:309.879   CPU_ReadMem(64 bytes @ 0x08000800)
TBE24 003:310.404    -- Updating C cache (64 bytes @ 0x08000800)
TBE24 003:310.427    -- Read from C cache (2 bytes @ 0x0800082C)
TBE24 003:310.443   Data:  06 48
TBE24 003:310.459 - 0.623ms returns 2 (0x2)
TBE24 003:310.476 JLINK_HasError()
TBE24 003:310.490 JLINK_SetBPEx(Addr = 0x0800D660, Type = 0xFFFFFFF2)
TBE24 003:310.504 - 0.020ms returns 0x00000001
TBE24 003:310.517 JLINK_HasError()
TBE24 003:310.529 JLINK_HasError()
TBE24 003:310.542 JLINK_Go()
TBE24 003:310.568   CPU_WriteMem(4 bytes @ 0xE0002000)
TBE24 003:310.866   CPU_ReadMem(4 bytes @ 0xE0001000)
TBE24 003:311.126   CPU_WriteMem(4 bytes @ 0xE0002008)
TBE24 003:311.155   CPU_WriteMem(4 bytes @ 0xE000200C)
TBE24 003:311.171   CPU_WriteMem(4 bytes @ 0xE0002010)
TBE24 003:311.188   CPU_WriteMem(4 bytes @ 0xE0002014)
TBE24 003:311.204   CPU_WriteMem(4 bytes @ 0xE0002018)
TBE24 003:311.220   CPU_WriteMem(4 bytes @ 0xE000201C)
TBE24 003:312.175   CPU_WriteMem(4 bytes @ 0xE0001004)
TBE24 003:312.763 - 2.234ms
TBE24 003:413.583 JLINK_HasError()
TBE24 003:413.642 JLINK_IsHalted()
TBE24 003:415.641 - 2.031ms returns TRUE
TBE24 003:415.705 JLINK_HasError()
TBE24 003:415.751 JLINK_Halt()
TBE24 003:415.794 - 0.066ms returns 0x00
TBE24 003:415.837 JLINK_IsHalted()
TBE24 003:415.879 - 0.059ms returns TRUE
TBE24 003:415.916 JLINK_IsHalted()
TBE24 003:415.943 - 0.040ms returns TRUE
TBE24 003:415.973 JLINK_IsHalted()
TBE24 003:415.999 - 0.039ms returns TRUE
TBE24 003:416.030 JLINK_HasError()
TBE24 003:416.062 JLINK_ReadReg(R15 (PC))
TBE24 003:416.095 - 0.046ms returns 0x0800D660
TBE24 003:416.127 JLINK_ReadReg(XPSR)
TBE24 003:416.155 - 0.041ms returns 0x61000000
TBE24 003:416.192 JLINK_HasError()
TBE24 003:416.223 JLINK_ClrBPEx(BPHandle = 0x00000001)
TBE24 003:416.252 - 0.042ms returns 0x00
TBE24 003:416.283 JLINK_HasError()
TBE24 003:416.312 JLINK_HasError()
TBE24 003:416.343 JLINK_ReadMemU32(0xE000ED30, 0x1 Items)
TBE24 003:416.391   CPU_ReadMem(4 bytes @ 0xE000ED30)
TBE24 003:416.699   Data:  02 00 00 00
TBE24 003:416.744 - 0.410ms returns 1 (0x1)
TBE24 003:416.776 JLINK_ReadMemU32(0xE0001028, 0x1 Items)
TBE24 003:416.809   CPU_ReadMem(4 bytes @ 0xE0001028)
TBE24 003:417.131   Data:  00 00 00 00
TBE24 003:417.168   Debug reg: DWT_FUNC[0]
TBE24 003:417.195 - 0.428ms returns 1 (0x1)
TBE24 003:417.221 JLINK_ReadMemU32(0xE0001038, 0x1 Items)
TBE24 003:417.248   CPU_ReadMem(4 bytes @ 0xE0001038)
TBE24 003:417.519   Data:  00 02 00 00
TBE24 003:417.567   Debug reg: DWT_FUNC[1]
TBE24 003:417.605 - 0.397ms returns 1 (0x1)
TBE24 003:417.646 JLINK_ReadMemU32(0xE0001048, 0x1 Items)
TBE24 003:417.682   CPU_ReadMem(4 bytes @ 0xE0001048)
TBE24 003:417.981   Data:  00 00 00 00
TBE24 003:418.017   Debug reg: DWT_FUNC[2]
TBE24 003:418.044 - 0.407ms returns 1 (0x1)
TBE24 003:418.073 JLINK_ReadMemU32(0xE0001058, 0x1 Items)
TBE24 003:418.099   CPU_ReadMem(4 bytes @ 0xE0001058)
TBE24 003:418.372   Data:  00 00 00 00
TBE24 003:418.407   Debug reg: DWT_FUNC[3]
TBE24 003:418.434 - 0.370ms returns 1 (0x1)
TBE24 003:418.551 JLINK_HasError()
TBE24 003:418.577 JLINK_ReadReg(R0)
TBE24 003:418.599 - 0.031ms returns 0x0800D661
TBE24 003:418.622 JLINK_ReadReg(R1)
TBE24 003:418.641 - 0.028ms returns 0x20011020
TBE24 003:418.662 JLINK_ReadReg(R2)
TBE24 003:418.681 - 0.028ms returns 0x00000000
TBE24 003:418.703 JLINK_ReadReg(R3)
TBE24 003:418.722 - 0.028ms returns 0x0800C749
TBE24 003:418.743 JLINK_ReadReg(R4)
TBE24 003:418.762 - 0.028ms returns 0x0800F688
TBE24 003:418.783 JLINK_ReadReg(R5)
TBE24 003:418.802 - 0.028ms returns 0x0800F688
TBE24 003:418.824 JLINK_ReadReg(R6)
TBE24 003:418.842 - 0.027ms returns 0x00000000
TBE24 003:418.864 JLINK_ReadReg(R7)
TBE24 003:418.883 - 0.028ms returns 0x00000000
TBE24 003:418.904 JLINK_ReadReg(R8)
TBE24 003:418.923 - 0.028ms returns 0x00000000
TBE24 003:418.944 JLINK_ReadReg(R9)
TBE24 003:418.963 - 0.028ms returns 0x00000000
TBE24 003:418.985 JLINK_ReadReg(R10)
TBE24 003:419.003 - 0.028ms returns 0x00000000
TBE24 003:419.025 JLINK_ReadReg(R11)
TBE24 003:419.044 - 0.027ms returns 0x00000000
TBE24 003:419.065 JLINK_ReadReg(R12)
TBE24 003:419.084 - 0.028ms returns 0x00000000
TBE24 003:419.105 JLINK_ReadReg(R13 (SP))
TBE24 003:419.124 - 0.028ms returns 0x20011020
TBE24 003:419.146 JLINK_ReadReg(R14)
TBE24 003:419.165 - 0.028ms returns 0x0800102D
TBE24 003:419.186 JLINK_ReadReg(R15 (PC))
TBE24 003:419.205 - 0.028ms returns 0x0800D660
TBE24 003:419.227 JLINK_ReadReg(XPSR)
TBE24 003:419.246 - 0.028ms returns 0x61000000
TBE24 003:419.267 JLINK_ReadReg(MSP)
TBE24 003:419.286 - 0.028ms returns 0x20011020
TBE24 003:419.307 JLINK_ReadReg(PSP)
TBE24 003:419.326 - 0.027ms returns 0x00000000
TBE24 003:419.347 JLINK_ReadReg(CFBP)
TBE24 003:419.366 - 0.028ms returns 0x00000000
TBE24 003:419.388 JLINK_ReadReg(FPSCR)
TBE24 003:422.269 - 2.897ms returns 0x00000000
TBE24 003:422.299 JLINK_ReadReg(FPS0)
TBE24 003:422.317 - 0.026ms returns 0x00000000
TBE24 003:422.336 JLINK_ReadReg(FPS1)
TBE24 003:422.352 - 0.024ms returns 0x00000000
TBE24 003:422.371 JLINK_ReadReg(FPS2)
TBE24 003:422.387 - 0.024ms returns 0x00000000
TBE24 003:422.406 JLINK_ReadReg(FPS3)
TBE24 003:422.422 - 0.024ms returns 0x00000000
TBE24 003:422.440 JLINK_ReadReg(FPS4)
TBE24 003:422.456 - 0.027ms returns 0x00000000
TBE24 003:422.479 JLINK_ReadReg(FPS5)
TBE24 003:422.495 - 0.023ms returns 0x00000000
TBE24 003:422.513 JLINK_ReadReg(FPS6)
TBE24 003:422.529 - 0.023ms returns 0x00000000
TBE24 003:422.547 JLINK_ReadReg(FPS7)
TBE24 003:422.562 - 0.023ms returns 0x00000000
TBE24 003:422.580 JLINK_ReadReg(FPS8)
TBE24 003:422.596 - 0.023ms returns 0x00000000
TBE24 003:422.614 JLINK_ReadReg(FPS9)
TBE24 003:422.629 - 0.023ms returns 0x00000000
TBE24 003:422.647 JLINK_ReadReg(FPS10)
TBE24 003:422.663 - 0.023ms returns 0x00000000
TBE24 003:422.681 JLINK_ReadReg(FPS11)
TBE24 003:422.697 - 0.023ms returns 0x00000000
TBE24 003:422.715 JLINK_ReadReg(FPS12)
TBE24 003:422.730 - 0.023ms returns 0x00000000
TBE24 003:422.748 JLINK_ReadReg(FPS13)
TBE24 003:422.764 - 0.023ms returns 0x00000000
TBE24 003:422.782 JLINK_ReadReg(FPS14)
TBE24 003:422.797 - 0.028ms returns 0x00000000
TBE24 003:422.823 JLINK_ReadReg(FPS15)
TBE24 003:422.839 - 0.023ms returns 0x00000000
TBE24 003:422.857 JLINK_ReadReg(FPS16)
TBE24 003:422.872 - 0.023ms returns 0x00000000
TBE24 003:422.890 JLINK_ReadReg(FPS17)
TBE24 003:422.906 - 0.023ms returns 0x00000000
TBE24 003:422.924 JLINK_ReadReg(FPS18)
TBE24 003:422.940 - 0.023ms returns 0x00000000
TBE24 003:422.957 JLINK_ReadReg(FPS19)
TBE24 003:422.973 - 0.023ms returns 0x00000000
TBE24 003:422.991 JLINK_ReadReg(FPS20)
TBE24 003:423.007 - 0.023ms returns 0x00000000
TBE24 003:423.024 JLINK_ReadReg(FPS21)
TBE24 003:423.040 - 0.023ms returns 0x00000000
TBE24 003:423.058 JLINK_ReadReg(FPS22)
TBE24 003:423.074 - 0.023ms returns 0x00000000
TBE24 003:423.092 JLINK_ReadReg(FPS23)
TBE24 003:423.107 - 0.023ms returns 0x00000000
TBE24 003:423.125 JLINK_ReadReg(FPS24)
TBE24 003:423.141 - 0.023ms returns 0x00000000
TBE24 003:423.159 JLINK_ReadReg(FPS25)
TBE24 003:423.174 - 0.023ms returns 0x00000000
TBE24 003:423.192 JLINK_ReadReg(FPS26)
TBE24 003:423.208 - 0.023ms returns 0x00000000
TBE24 003:423.226 JLINK_ReadReg(FPS27)
TBE24 003:423.241 - 0.023ms returns 0x00000000
TBE24 003:423.259 JLINK_ReadReg(FPS28)
TBE24 003:423.275 - 0.023ms returns 0x00000000
TBE24 003:423.293 JLINK_ReadReg(FPS29)
TBE24 003:423.309 - 0.023ms returns 0x00000000
TBE24 003:423.327 JLINK_ReadReg(FPS30)
TBE24 003:423.342 - 0.023ms returns 0x00000000
TBE24 003:423.360 JLINK_ReadReg(FPS31)
TBE24 003:423.376 - 0.023ms returns 0x00000000
T3CFC 003:423.509 JLINK_ReadMemEx(0x20008A50, 0x4 Bytes, Flags = 0x02000000)
T3CFC 003:423.551   CPU_ReadMem(64 bytes @ 0x20008A40)
T3CFC 003:424.148    -- Updating C cache (64 bytes @ 0x20008A40)
T3CFC 003:424.179    -- Read from C cache (4 bytes @ 0x20008A50)
T3CFC 003:424.203   Data:  D2 B3 FB 02
T3CFC 003:424.226 - 0.725ms returns 4 (0x4)
T3CFC 003:424.254 JLINK_ReadMemEx(0x20008A50, 0x4 Bytes, Flags = 0x02000000)
T3CFC 003:424.274    -- Read from C cache (4 bytes @ 0x20008A50)
T3CFC 003:424.298   Data:  D2 B3 FB 02
T3CFC 003:424.321 - 0.075ms returns 4 (0x4)
T3CFC 003:424.345 JLINK_ReadMemEx(0x20008A74, 0x4 Bytes, Flags = 0x02000000)
T3CFC 003:424.364    -- Read from C cache (4 bytes @ 0x20008A74)
T3CFC 003:424.388   Data:  00 00 00 00
T3CFC 003:424.411 - 0.073ms returns 4 (0x4)
T3CFC 003:424.429 JLINK_ReadMemEx(0x20008A94, 0x4 Bytes, Flags = 0x02000000)
T3CFC 003:424.449   CPU_ReadMem(64 bytes @ 0x20008A80)
T3CFC 003:425.019    -- Updating C cache (64 bytes @ 0x20008A80)
T3CFC 003:425.049    -- Read from C cache (4 bytes @ 0x20008A94)
T3CFC 003:425.072   Data:  00 00 00 00
T3CFC 003:425.095 - 0.674ms returns 4 (0x4)
T3CFC 003:427.090 JLINK_ReadMemEx(0x2000856C, 0x2 Bytes, Flags = 0x02000000)
T3CFC 003:427.125   CPU_ReadMem(64 bytes @ 0x20008540)
T3CFC 003:427.625    -- Updating C cache (64 bytes @ 0x20008540)
T3CFC 003:427.653    -- Read from C cache (2 bytes @ 0x2000856C)
T3CFC 003:427.674   Data:  08 0A
T3CFC 003:427.694 - 0.610ms returns 2 (0x2)
T3CFC 003:427.735 JLINK_ReadMemEx(0x20009848, 0xA Bytes, Flags = 0x02000000)
T3CFC 003:427.756   CPU_ReadMem(64 bytes @ 0x20009840)
T3CFC 003:428.342    -- Updating C cache (64 bytes @ 0x20009840)
T3CFC 003:428.368    -- Read from C cache (10 bytes @ 0x20009848)
T3CFC 003:428.389   Data:  00 00 00 00 00 00 00 00 00 00
T3CFC 003:428.408 - 0.680ms returns 10 (0xA)
T3CFC 003:428.441 JLINK_ReadMemEx(0x2000856E, 0x2 Bytes, Flags = 0x02000000)
T3CFC 003:428.464    -- Read from C cache (2 bytes @ 0x2000856E)
T3CFC 003:428.484   Data:  09 0B
T3CFC 003:428.503 - 0.068ms returns 2 (0x2)
T3CFC 003:428.523 JLINK_ReadMemEx(0x20008570, 0x1 Bytes, Flags = 0x02000000)
T3CFC 003:428.539    -- Read from C cache (1 bytes @ 0x20008570)
T3CFC 003:428.558   Data:  00
T3CFC 003:428.577 - 0.060ms returns 1 (0x1)
TBE24 011:789.096 JLINK_ReadMemEx(0x0800D660, 0x2 Bytes, Flags = 0x02000000)
TBE24 011:789.144   CPU_ReadMem(64 bytes @ 0x0800D640)
TBE24 011:789.659    -- Updating C cache (64 bytes @ 0x0800D640)
TBE24 011:789.688    -- Read from C cache (2 bytes @ 0x0800D660)
TBE24 011:789.717   Data:  F7 F7
TBE24 011:789.738 - 0.648ms returns 2 (0x2)
TBE24 011:789.758 JLINK_HasError()
TBE24 011:789.776 JLINK_SetBPEx(Addr = 0x0800B62E, Type = 0xFFFFFFF2)
TBE24 011:789.795 - 0.026ms returns 0x00000002
TBE24 011:789.812 JLINK_HasError()
TBE24 011:789.828 JLINK_HasError()
TBE24 011:789.845 JLINK_Go()
TBE24 011:790.150   CPU_WriteMem(4 bytes @ 0xE0002000)
TBE24 011:790.416   CPU_ReadMem(4 bytes @ 0xE0001000)
TBE24 011:790.776   CPU_WriteMem(4 bytes @ 0xE0002008)
TBE24 011:791.348 - 1.515ms
TBE24 011:891.842 JLINK_HasError()
TBE24 011:891.909 JLINK_IsHalted()
TBE24 011:892.254 - 0.376ms returns FALSE
TBE24 011:992.628 JLINK_HasError()
TBE24 011:992.672 JLINK_IsHalted()
TBE24 011:992.947 - 0.291ms returns FALSE
TBE24 012:093.380 JLINK_HasError()
TBE24 012:093.527 JLINK_IsHalted()
TBE24 012:094.111 - 0.676ms returns FALSE
TBE24 012:195.035 JLINK_HasError()
TBE24 012:195.111 JLINK_IsHalted()
TBE24 012:195.520 - 0.437ms returns FALSE
TBE24 012:295.743 JLINK_HasError()
TBE24 012:295.791 JLINK_IsHalted()
TBE24 012:296.058 - 0.279ms returns FALSE
TBE24 012:396.478 JLINK_HasError()
TBE24 012:396.522 JLINK_HasError()
TBE24 012:396.535 JLINK_ReadMemU32(0xE0001004, 0x1 Items)
TBE24 012:396.560   CPU_ReadMem(4 bytes @ 0xE0001004)
TBE24 012:396.868   Data:  AF D5 7C 06
TBE24 012:396.892   Debug reg: DWT_CYCCNT
TBE24 012:396.907 - 0.377ms returns 1 (0x1)
T3CFC 012:397.036 JLINK_ReadMemEx(0x2000856C, 0x2 Bytes, Flags = 0x02000000)
T3CFC 012:397.064   CPU_ReadMem(2 bytes @ 0x2000856C)
T3CFC 012:397.308   Data:  08 0A
T3CFC 012:397.332 - 0.302ms returns 2 (0x2)
T3CFC 012:397.373 JLINK_ReadMemEx(0x20009848, 0xA Bytes, Flags = 0x02000000)
T3CFC 012:397.391   CPU_ReadMem(10 bytes @ 0x20009848)
T3CFC 012:397.748   Data:  00 00 00 00 00 00 00 00 00 00
T3CFC 012:397.769 - 0.401ms returns 10 (0xA)
T3CFC 012:397.800 JLINK_ReadMemEx(0x2000856E, 0x2 Bytes, Flags = 0x02000000)
T3CFC 012:397.817   CPU_ReadMem(2 bytes @ 0x2000856E)
T3CFC 012:398.038   Data:  09 0B
T3CFC 012:398.059 - 0.264ms returns 2 (0x2)
T3CFC 012:398.078 JLINK_ReadMemEx(0x20008570, 0x1 Bytes, Flags = 0x02000000)
T3CFC 012:398.094   CPU_ReadMem(1 bytes @ 0x20008570)
T3CFC 012:398.324   Data:  FF
T3CFC 012:398.344 - 0.271ms returns 1 (0x1)
TBE24 012:399.913 JLINK_IsHalted()
TBE24 012:400.217 - 0.316ms returns FALSE
TBE24 012:501.190 JLINK_HasError()
TBE24 012:501.225 JLINK_IsHalted()
TBE24 012:501.523 - 0.313ms returns FALSE
TBE24 012:601.994 JLINK_HasError()
TBE24 012:602.172 JLINK_IsHalted()
TBE24 012:602.755 - 0.651ms returns FALSE
TBE24 012:703.697 JLINK_HasError()
TBE24 012:703.823 JLINK_IsHalted()
TBE24 012:704.277 - 0.519ms returns FALSE
TBE24 012:805.582 JLINK_HasError()
TBE24 012:805.705 JLINK_IsHalted()
TBE24 012:806.175 - 0.519ms returns FALSE
TBE24 012:907.131 JLINK_HasError()
TBE24 012:907.205 JLINK_HasError()
TBE24 012:907.228 JLINK_ReadMemU32(0xE0001004, 0x1 Items)
TBE24 012:907.264   Data:  AF D5 7C 06
TBE24 012:907.294   Debug reg: DWT_CYCCNT
TBE24 012:907.322 - 0.103ms returns 1 (0x1)
T3CFC 012:907.527 JLINK_ReadMemEx(0x2000856C, 0x2 Bytes, Flags = 0x02000000)
T3CFC 012:907.570   CPU_ReadMem(2 bytes @ 0x2000856C)
T3CFC 012:907.905   Data:  08 0A
T3CFC 012:907.943 - 0.426ms returns 2 (0x2)
T3CFC 012:908.002 JLINK_ReadMemEx(0x20009848, 0xA Bytes, Flags = 0x02000000)
T3CFC 012:908.033   CPU_ReadMem(10 bytes @ 0x20009848)
T3CFC 012:908.382   Data:  00 00 00 00 00 00 00 00 00 00
T3CFC 012:908.420 - 0.428ms returns 10 (0xA)
T3CFC 012:908.470 JLINK_ReadMemEx(0x2000856E, 0x2 Bytes, Flags = 0x02000000)
T3CFC 012:908.500   CPU_ReadMem(2 bytes @ 0x2000856E)
T3CFC 012:908.781   Data:  09 0B
T3CFC 012:908.818 - 0.359ms returns 2 (0x2)
T3CFC 012:908.854 JLINK_ReadMemEx(0x20008570, 0x1 Bytes, Flags = 0x02000000)
T3CFC 012:908.883   CPU_ReadMem(1 bytes @ 0x20008570)
T3CFC 012:909.155   Data:  FF
T3CFC 012:909.193 - 0.349ms returns 1 (0x1)
TBE24 012:911.203 JLINK_IsHalted()
TBE24 012:911.526 - 0.344ms returns FALSE
TBE24 013:011.869 JLINK_HasError()
TBE24 013:011.985 JLINK_IsHalted()
TBE24 013:012.466 - 0.533ms returns FALSE
TBE24 013:113.634 JLINK_HasError()
TBE24 013:113.817 JLINK_IsHalted()
TBE24 013:114.370 - 0.620ms returns FALSE
TBE24 013:215.358 JLINK_HasError()
TBE24 013:215.581 JLINK_IsHalted()
TBE24 013:216.304 - 0.831ms returns FALSE
TBE24 013:317.026 JLINK_HasError()
TBE24 013:317.097 JLINK_IsHalted()
TBE24 013:317.454 - 0.383ms returns FALSE
TBE24 013:417.746 JLINK_HasError()
TBE24 013:417.789 JLINK_HasError()
TBE24 013:417.809 JLINK_ReadMemU32(0xE0001004, 0x1 Items)
TBE24 013:417.839   Data:  AF D5 7C 06
TBE24 013:417.865   Debug reg: DWT_CYCCNT
TBE24 013:417.889 - 0.088ms returns 1 (0x1)
T3CFC 013:418.036 JLINK_ReadMemEx(0x2000856C, 0x2 Bytes, Flags = 0x02000000)
T3CFC 013:418.078   CPU_ReadMem(2 bytes @ 0x2000856C)
T3CFC 013:418.408   Data:  08 0A
T3CFC 013:418.439 - 0.411ms returns 2 (0x2)
T3CFC 013:418.494 JLINK_ReadMemEx(0x20009848, 0xA Bytes, Flags = 0x02000000)
T3CFC 013:418.519   CPU_ReadMem(10 bytes @ 0x20009848)
T3CFC 013:418.979   Data:  00 00 00 00 00 00 00 00 00 00
T3CFC 013:419.009 - 0.523ms returns 10 (0xA)
T3CFC 013:419.051 JLINK_ReadMemEx(0x2000856E, 0x2 Bytes, Flags = 0x02000000)
T3CFC 013:419.075   CPU_ReadMem(2 bytes @ 0x2000856E)
T3CFC 013:419.331   Data:  09 0B
T3CFC 013:419.368 - 0.326ms returns 2 (0x2)
T3CFC 013:419.401 JLINK_ReadMemEx(0x20008570, 0x1 Bytes, Flags = 0x02000000)
T3CFC 013:419.427   CPU_ReadMem(1 bytes @ 0x20008570)
T3CFC 013:419.748   Data:  FF
T3CFC 013:419.780 - 0.387ms returns 1 (0x1)
TBE24 013:420.575 JLINK_IsHalted()
TBE24 013:420.910 - 0.348ms returns FALSE
TBE24 013:521.469 JLINK_HasError()
TBE24 013:521.524 JLINK_IsHalted()
TBE24 013:521.800 - 0.292ms returns FALSE
TBE24 013:622.292 JLINK_HasError()
TBE24 013:622.326 JLINK_IsHalted()
TBE24 013:622.561 - 0.246ms returns FALSE
TBE24 013:722.992 JLINK_HasError()
TBE24 013:723.044 JLINK_IsHalted()
TBE24 013:723.325 - 0.300ms returns FALSE
TBE24 013:823.724 JLINK_HasError()
TBE24 013:823.809 JLINK_IsHalted()
TBE24 013:824.257 - 0.490ms returns FALSE
TBE24 013:924.444 JLINK_HasError()
TBE24 013:924.560 JLINK_IsHalted()
TBE24 013:925.076 - 0.567ms returns FALSE
TBE24 014:026.186 JLINK_HasError()
TBE24 014:026.308 JLINK_HasError()
TBE24 014:026.366 JLINK_ReadMemU32(0xE0001004, 0x1 Items)
TBE24 014:026.450   Data:  AF D5 7C 06
TBE24 014:026.527   Debug reg: DWT_CYCCNT
TBE24 014:026.597 - 0.254ms returns 1 (0x1)
T3CFC 014:027.199 JLINK_ReadMemEx(0x2000856C, 0x2 Bytes, Flags = 0x02000000)
T3CFC 014:027.326   CPU_ReadMem(2 bytes @ 0x2000856C)
T3CFC 014:027.826   Data:  08 0A
T3CFC 014:027.947 - 0.776ms returns 2 (0x2)
T3CFC 014:028.155 JLINK_ReadMemEx(0x20009848, 0xA Bytes, Flags = 0x02000000)
T3CFC 014:028.242   CPU_ReadMem(10 bytes @ 0x20009848)
T3CFC 014:028.918   Data:  00 00 00 00 00 00 00 00 00 00
T3CFC 014:029.017 - 0.888ms returns 10 (0xA)
T3CFC 014:029.171 JLINK_ReadMemEx(0x2000856E, 0x2 Bytes, Flags = 0x02000000)
T3CFC 014:029.251   CPU_ReadMem(2 bytes @ 0x2000856E)
T3CFC 014:029.699   Data:  09 0B
T3CFC 014:029.797 - 0.652ms returns 2 (0x2)
T3CFC 014:029.891 JLINK_ReadMemEx(0x20008570, 0x1 Bytes, Flags = 0x02000000)
T3CFC 014:029.966   CPU_ReadMem(1 bytes @ 0x20008570)
T3CFC 014:030.453   Data:  FF
T3CFC 014:030.552 - 0.687ms returns 1 (0x1)
TBE24 014:032.690 JLINK_IsHalted()
TBE24 014:033.231 - 0.595ms returns FALSE
TBE24 014:133.905 JLINK_HasError()
TBE24 014:134.048 JLINK_IsHalted()
TBE24 014:134.510 - 0.542ms returns FALSE
TBE24 014:235.636 JLINK_HasError()
TBE24 014:235.833 JLINK_IsHalted()
TBE24 014:236.345 - 0.580ms returns FALSE
TBE24 014:337.350 JLINK_HasError()
TBE24 014:337.562 JLINK_IsHalted()
TBE24 014:338.160 - 0.695ms returns FALSE
TBE24 014:439.143 JLINK_HasError()
TBE24 014:439.218 JLINK_IsHalted()
TBE24 014:439.566 - 0.377ms returns FALSE
TBE24 014:539.785 JLINK_HasError()
TBE24 014:539.892 JLINK_HasError()
TBE24 014:539.966 JLINK_ReadMemU32(0xE0001004, 0x1 Items)
TBE24 014:540.046   Data:  AF D5 7C 06
TBE24 014:540.170   Debug reg: DWT_CYCCNT
TBE24 014:540.247 - 0.329ms returns 1 (0x1)
T3CFC 014:540.644 JLINK_ReadMemEx(0x2000856C, 0x2 Bytes, Flags = 0x02000000)
T3CFC 014:540.739   CPU_ReadMem(2 bytes @ 0x2000856C)
T3CFC 014:541.140   Data:  08 0A
T3CFC 014:541.213 - 0.586ms returns 2 (0x2)
T3CFC 014:541.322 JLINK_ReadMemEx(0x20009848, 0xA Bytes, Flags = 0x02000000)
T3CFC 014:541.377   CPU_ReadMem(10 bytes @ 0x20009848)
T3CFC 014:541.834   Data:  00 00 00 00 00 00 00 00 00 00
T3CFC 014:541.933 - 0.643ms returns 10 (0xA)
T3CFC 014:542.073 JLINK_ReadMemEx(0x2000856E, 0x2 Bytes, Flags = 0x02000000)
T3CFC 014:542.131   CPU_ReadMem(2 bytes @ 0x2000856E)
T3CFC 014:542.503   Data:  09 0B
T3CFC 014:542.567 - 0.512ms returns 2 (0x2)
T3CFC 014:542.630 JLINK_ReadMemEx(0x20008570, 0x1 Bytes, Flags = 0x02000000)
T3CFC 014:542.680   CPU_ReadMem(1 bytes @ 0x20008570)
T3CFC 014:543.065   Data:  FF
T3CFC 014:543.128 - 0.515ms returns 1 (0x1)
TBE24 014:544.649 JLINK_IsHalted()
TBE24 014:545.101 - 0.484ms returns FALSE
TBE24 014:645.515 JLINK_HasError()
TBE24 014:645.550 JLINK_IsHalted()
TBE24 014:645.822 - 0.282ms returns FALSE
TBE24 014:746.265 JLINK_HasError()
TBE24 014:746.424 JLINK_IsHalted()
TBE24 014:746.959 - 0.601ms returns FALSE
TBE24 014:847.979 JLINK_HasError()
TBE24 014:848.110 JLINK_IsHalted()
TBE24 014:848.569 - 0.510ms returns FALSE
TBE24 014:949.659 JLINK_HasError()
TBE24 014:949.743 JLINK_IsHalted()
TBE24 014:950.085 - 0.369ms returns FALSE
TBE24 015:050.384 JLINK_HasError()
TBE24 015:050.452 JLINK_IsHalted()
TBE24 015:050.786 - 0.364ms returns FALSE
TBE24 015:151.121 JLINK_HasError()
TBE24 015:151.190 JLINK_HasError()
TBE24 015:151.222 JLINK_ReadMemU32(0xE0001004, 0x1 Items)
TBE24 015:151.267   Data:  AF D5 7C 06
TBE24 015:151.308   Debug reg: DWT_CYCCNT
TBE24 015:151.396 - 0.195ms returns 1 (0x1)
T3CFC 015:156.020 JLINK_ReadMemEx(0x2000856C, 0x2 Bytes, Flags = 0x02000000)
T3CFC 015:156.107   CPU_ReadMem(2 bytes @ 0x2000856C)
T3CFC 015:156.456   Data:  08 0A
T3CFC 015:156.508 - 0.510ms returns 2 (0x2)
T3CFC 015:156.602 JLINK_ReadMemEx(0x20009848, 0xA Bytes, Flags = 0x02000000)
T3CFC 015:156.640   CPU_ReadMem(10 bytes @ 0x20009848)
T3CFC 015:157.020   Data:  00 00 00 00 00 00 00 00 00 00
T3CFC 015:157.075 - 0.491ms returns 10 (0xA)
T3CFC 015:157.157 JLINK_ReadMemEx(0x2000856E, 0x2 Bytes, Flags = 0x02000000)
T3CFC 015:157.202   CPU_ReadMem(2 bytes @ 0x2000856E)
T3CFC 015:157.510   Data:  09 0B
T3CFC 015:157.563 - 0.426ms returns 2 (0x2)
T3CFC 015:157.628 JLINK_ReadMemEx(0x20008570, 0x1 Bytes, Flags = 0x02000000)
T3CFC 015:157.673   CPU_ReadMem(1 bytes @ 0x20008570)
T3CFC 015:157.988   Data:  FF
T3CFC 015:158.039 - 0.425ms returns 1 (0x1)
TBE24 015:159.216 JLINK_IsHalted()
TBE24 015:159.542 - 0.358ms returns FALSE
TBE24 015:259.810 JLINK_HasError()
TBE24 015:259.845 JLINK_IsHalted()
TBE24 015:260.097 - 0.264ms returns FALSE
TBE24 015:360.609 JLINK_HasError()
TBE24 015:360.774 JLINK_IsHalted()
TBE24 015:361.313 - 0.606ms returns FALSE
TBE24 015:462.331 JLINK_HasError()
TBE24 015:462.453 JLINK_IsHalted()
TBE24 015:462.961 - 0.559ms returns FALSE
TBE24 015:564.004 JLINK_HasError()
TBE24 015:564.125 JLINK_IsHalted()
TBE24 015:564.435 - 0.331ms returns FALSE
TBE24 015:664.806 JLINK_HasError()
TBE24 015:664.931 JLINK_HasError()
TBE24 015:664.992 JLINK_ReadMemU32(0xE0001004, 0x1 Items)
TBE24 015:665.075   Data:  AF D5 7C 06
TBE24 015:665.152   Debug reg: DWT_CYCCNT
TBE24 015:665.224 - 0.257ms returns 1 (0x1)
T3CFC 015:665.571 JLINK_ReadMemEx(0x2000856C, 0x2 Bytes, Flags = 0x02000000)
T3CFC 015:665.702   CPU_ReadMem(2 bytes @ 0x2000856C)
T3CFC 015:666.237   Data:  08 0A
T3CFC 015:666.336 - 0.792ms returns 2 (0x2)
T3CFC 015:666.487 JLINK_ReadMemEx(0x20009848, 0xA Bytes, Flags = 0x02000000)
T3CFC 015:666.568   CPU_ReadMem(10 bytes @ 0x20009848)
T3CFC 015:667.111   Data:  00 00 00 00 00 00 00 00 00 00
T3CFC 015:667.209 - 0.748ms returns 10 (0xA)
T3CFC 015:667.344 JLINK_ReadMemEx(0x2000856E, 0x2 Bytes, Flags = 0x02000000)
T3CFC 015:667.423   CPU_ReadMem(2 bytes @ 0x2000856E)
T3CFC 015:667.876   Data:  09 0B
T3CFC 015:667.996 - 0.679ms returns 2 (0x2)
T3CFC 015:668.090 JLINK_ReadMemEx(0x20008570, 0x1 Bytes, Flags = 0x02000000)
T3CFC 015:668.166   CPU_ReadMem(1 bytes @ 0x20008570)
T3CFC 015:668.600   Data:  FF
T3CFC 015:668.699 - 0.652ms returns 1 (0x1)
TBE24 015:671.397 JLINK_IsHalted()
TBE24 015:671.903 - 0.557ms returns FALSE
TBE24 015:772.442 JLINK_HasError()
TBE24 015:772.485 JLINK_IsHalted()
TBE24 015:772.745 - 0.275ms returns FALSE
TBE24 015:873.238 JLINK_HasError()
TBE24 015:873.358 JLINK_IsHalted()
TBE24 015:873.799 - 0.491ms returns FALSE
TBE24 015:974.976 JLINK_HasError()
TBE24 015:975.105 JLINK_IsHalted()
TBE24 015:975.564 - 0.525ms returns FALSE
TBE24 016:076.634 JLINK_HasError()
TBE24 016:076.682 JLINK_IsHalted()
TBE24 016:076.950 - 0.286ms returns FALSE
TBE24 016:177.382 JLINK_HasError()
TBE24 016:177.661 JLINK_IsHalted()
TBE24 016:178.137 - 0.534ms returns FALSE
TBE24 016:279.152 JLINK_HasError()
TBE24 016:279.198 JLINK_HasError()
TBE24 016:279.221 JLINK_ReadMemU32(0xE0001004, 0x1 Items)
TBE24 016:279.255   Data:  AF D5 7C 06
TBE24 016:279.285   Debug reg: DWT_CYCCNT
TBE24 016:279.313 - 0.101ms returns 1 (0x1)
T3CFC 016:279.464 JLINK_ReadMemEx(0x2000856C, 0x2 Bytes, Flags = 0x02000000)
T3CFC 016:279.514   CPU_ReadMem(2 bytes @ 0x2000856C)
T3CFC 016:279.802   Data:  08 0A
T3CFC 016:279.840 - 0.386ms returns 2 (0x2)
T3CFC 016:279.897 JLINK_ReadMemEx(0x20009848, 0xA Bytes, Flags = 0x02000000)
T3CFC 016:279.927   CPU_ReadMem(10 bytes @ 0x20009848)
T3CFC 016:280.282   Data:  00 00 00 00 00 00 00 00 00 00
T3CFC 016:280.319 - 0.433ms returns 10 (0xA)
T3CFC 016:280.397 JLINK_ReadMemEx(0x2000856E, 0x2 Bytes, Flags = 0x02000000)
T3CFC 016:280.441   CPU_ReadMem(2 bytes @ 0x2000856E)
T3CFC 016:280.750   Data:  09 0B
T3CFC 016:280.787 - 0.400ms returns 2 (0x2)
T3CFC 016:280.823 JLINK_ReadMemEx(0x20008570, 0x1 Bytes, Flags = 0x02000000)
T3CFC 016:280.852   CPU_ReadMem(1 bytes @ 0x20008570)
T3CFC 016:281.119   Data:  FF
T3CFC 016:281.157 - 0.343ms returns 1 (0x1)
TBE24 016:282.067 JLINK_IsHalted()
TBE24 016:282.377 - 0.335ms returns FALSE
TBE24 016:382.880 JLINK_HasError()
TBE24 016:383.004 JLINK_IsHalted()
TBE24 016:383.448 - 0.498ms returns FALSE
TBE24 016:484.634 JLINK_HasError()
TBE24 016:484.667 JLINK_IsHalted()
TBE24 016:484.896 - 0.239ms returns FALSE
TBE24 016:585.366 JLINK_HasError()
TBE24 016:585.401 JLINK_IsHalted()
TBE24 016:585.635 - 0.245ms returns FALSE
TBE24 016:686.022 JLINK_HasError()
TBE24 016:686.320 JLINK_IsHalted()
TBE24 016:686.781 - 0.501ms returns FALSE
TBE24 016:787.809 JLINK_HasError()
TBE24 016:787.846 JLINK_IsHalted()
TBE24 016:788.094 - 0.265ms returns FALSE
TBE24 016:888.528 JLINK_HasError()
TBE24 016:888.643 JLINK_HasError()
TBE24 016:888.703 JLINK_ReadMemU32(0xE0001004, 0x1 Items)
TBE24 016:888.786   Data:  AF D5 7C 06
TBE24 016:888.864   Debug reg: DWT_CYCCNT
TBE24 016:888.936 - 0.257ms returns 1 (0x1)
T3CFC 016:889.289 JLINK_ReadMemEx(0x2000856C, 0x2 Bytes, Flags = 0x02000000)
T3CFC 016:889.414   CPU_ReadMem(2 bytes @ 0x2000856C)
T3CFC 016:890.005   Data:  08 0A
T3CFC 016:890.105 - 0.843ms returns 2 (0x2)
T3CFC 016:890.258 JLINK_ReadMemEx(0x20009848, 0xA Bytes, Flags = 0x02000000)
T3CFC 016:890.339   CPU_ReadMem(10 bytes @ 0x20009848)
T3CFC 016:890.883   Data:  00 00 00 00 00 00 00 00 00 00
T3CFC 016:890.978 - 0.746ms returns 10 (0xA)
T3CFC 016:891.106 JLINK_ReadMemEx(0x2000856E, 0x2 Bytes, Flags = 0x02000000)
T3CFC 016:891.186   CPU_ReadMem(2 bytes @ 0x2000856E)
T3CFC 016:891.619   Data:  09 0B
T3CFC 016:891.716 - 0.637ms returns 2 (0x2)
T3CFC 016:891.811 JLINK_ReadMemEx(0x20008570, 0x1 Bytes, Flags = 0x02000000)
T3CFC 016:891.885   CPU_ReadMem(1 bytes @ 0x20008570)
T3CFC 016:892.320   Data:  FF
T3CFC 016:892.417 - 0.645ms returns 1 (0x1)
TBE24 016:894.476 JLINK_IsHalted()
TBE24 016:894.934 - 0.507ms returns FALSE
TBE24 016:995.243 JLINK_HasError()
TBE24 016:995.362 JLINK_IsHalted()
TBE24 016:995.798 - 0.485ms returns FALSE
TBE24 017:096.963 JLINK_HasError()
TBE24 017:097.080 JLINK_IsHalted()
TBE24 017:099.329 - 2.310ms returns TRUE
TBE24 017:099.435 JLINK_HasError()
TBE24 017:099.497 JLINK_Halt()
TBE24 017:099.548 - 0.075ms returns 0x00
TBE24 017:099.607 JLINK_IsHalted()
TBE24 017:099.656 - 0.073ms returns TRUE
TBE24 017:099.714 JLINK_IsHalted()
TBE24 017:099.763 - 0.074ms returns TRUE
TBE24 017:099.821 JLINK_IsHalted()
TBE24 017:099.869 - 0.092ms returns TRUE
TBE24 017:099.949 JLINK_HasError()
TBE24 017:100.007 JLINK_ReadReg(R15 (PC))
TBE24 017:100.066 - 0.083ms returns 0x0800B62E
TBE24 017:100.124 JLINK_ReadReg(XPSR)
TBE24 017:100.175 - 0.075ms returns 0x41000000
TBE24 017:100.244 JLINK_HasError()
TBE24 017:100.302 JLINK_ClrBPEx(BPHandle = 0x00000002)
TBE24 017:100.355 - 0.077ms returns 0x00
TBE24 017:100.412 JLINK_HasError()
TBE24 017:100.467 JLINK_HasError()
TBE24 017:100.523 JLINK_ReadMemU32(0xE000ED30, 0x1 Items)
TBE24 017:100.592   CPU_ReadMem(4 bytes @ 0xE000ED30)
TBE24 017:101.075   Data:  02 00 00 00
TBE24 017:101.196 - 0.700ms returns 1 (0x1)
TBE24 017:101.270 JLINK_ReadMemU32(0xE0001028, 0x1 Items)
TBE24 017:101.349   CPU_ReadMem(4 bytes @ 0xE0001028)
TBE24 017:101.805   Data:  00 00 00 00
TBE24 017:101.920   Debug reg: DWT_FUNC[0]
TBE24 017:101.990 - 0.744ms returns 1 (0x1)
TBE24 017:102.056 JLINK_ReadMemU32(0xE0001038, 0x1 Items)
TBE24 017:102.125   CPU_ReadMem(4 bytes @ 0xE0001038)
TBE24 017:102.563   Data:  00 02 00 00
TBE24 017:102.661   Debug reg: DWT_FUNC[1]
TBE24 017:102.733 - 0.701ms returns 1 (0x1)
TBE24 017:102.799 JLINK_ReadMemU32(0xE0001048, 0x1 Items)
TBE24 017:102.881   CPU_ReadMem(4 bytes @ 0xE0001048)
TBE24 017:103.336   Data:  00 00 00 00
TBE24 017:103.399   Debug reg: DWT_FUNC[2]
TBE24 017:103.445 - 0.661ms returns 1 (0x1)
TBE24 017:103.488 JLINK_ReadMemU32(0xE0001058, 0x1 Items)
TBE24 017:103.531   CPU_ReadMem(4 bytes @ 0xE0001058)
TBE24 017:103.918   Data:  00 00 00 00
TBE24 017:103.998   Debug reg: DWT_FUNC[3]
TBE24 017:104.050 - 0.580ms returns 1 (0x1)
TBE24 017:104.238 JLINK_HasError()
TBE24 017:104.286 JLINK_ReadReg(R0)
TBE24 017:104.326 - 0.057ms returns 0x00000000
TBE24 017:104.366 JLINK_ReadReg(R1)
TBE24 017:104.401 - 0.051ms returns 0x00000000
TBE24 017:104.440 JLINK_ReadReg(R2)
TBE24 017:104.473 - 0.050ms returns 0x20008764
TBE24 017:104.511 JLINK_ReadReg(R3)
TBE24 017:104.544 - 0.049ms returns 0x1C000003
TBE24 017:104.582 JLINK_ReadReg(R4)
TBE24 017:104.615 - 0.049ms returns 0x00000000
TBE24 017:104.653 JLINK_ReadReg(R5)
TBE24 017:104.686 - 0.049ms returns 0x00000000
TBE24 017:104.723 JLINK_ReadReg(R6)
TBE24 017:104.756 - 0.049ms returns 0x00000000
TBE24 017:104.794 JLINK_ReadReg(R7)
TBE24 017:104.826 - 0.048ms returns 0x00000000
TBE24 017:104.873 JLINK_ReadReg(R8)
TBE24 017:104.909 - 0.052ms returns 0x00000000
TBE24 017:105.036 JLINK_ReadReg(R9)
TBE24 017:105.201 - 0.230ms returns 0x00000000
TBE24 017:105.334 JLINK_ReadReg(R10)
TBE24 017:105.440 - 0.146ms returns 0x00000000
TBE24 017:105.538 JLINK_ReadReg(R11)
TBE24 017:105.671 - 0.159ms returns 0x00000000
TBE24 017:105.735 JLINK_ReadReg(R12)
TBE24 017:105.787 - 0.075ms returns 0x02000005
TBE24 017:105.843 JLINK_ReadReg(R13 (SP))
TBE24 017:105.897 - 0.079ms returns 0x20006A10
TBE24 017:105.953 JLINK_ReadReg(R14)
TBE24 017:106.004 - 0.075ms returns 0x08001E7F
TBE24 017:106.061 JLINK_ReadReg(R15 (PC))
TBE24 017:106.111 - 0.074ms returns 0x0800B62E
TBE24 017:106.166 JLINK_ReadReg(XPSR)
TBE24 017:106.214 - 0.071ms returns 0x41000000
TBE24 017:106.269 JLINK_ReadReg(MSP)
TBE24 017:106.319 - 0.074ms returns 0x20010FF8
TBE24 017:106.374 JLINK_ReadReg(PSP)
TBE24 017:106.421 - 0.070ms returns 0x20006A10
TBE24 017:106.475 JLINK_ReadReg(CFBP)
TBE24 017:106.524 - 0.072ms returns 0x06000000
TBE24 017:106.577 JLINK_ReadReg(FPSCR)
TBE24 017:109.681 - 3.142ms returns 0x00000000
TBE24 017:109.753 JLINK_ReadReg(FPS0)
TBE24 017:109.799 - 0.064ms returns 0x41F00000
TBE24 017:109.841 JLINK_ReadReg(FPS1)
TBE24 017:109.883 - 0.060ms returns 0x447A0000
TBE24 017:109.924 JLINK_ReadReg(FPS2)
TBE24 017:109.960 - 0.053ms returns 0x00000000
TBE24 017:110.000 JLINK_ReadReg(FPS3)
TBE24 017:110.051 - 0.069ms returns 0x00000000
TBE24 017:110.092 JLINK_ReadReg(FPS4)
TBE24 017:110.128 - 0.053ms returns 0x00000000
TBE24 017:110.168 JLINK_ReadReg(FPS5)
TBE24 017:110.204 - 0.053ms returns 0x00000000
TBE24 017:110.243 JLINK_ReadReg(FPS6)
TBE24 017:110.279 - 0.052ms returns 0x00000000
TBE24 017:110.318 JLINK_ReadReg(FPS7)
TBE24 017:110.354 - 0.052ms returns 0x00000000
TBE24 017:110.393 JLINK_ReadReg(FPS8)
TBE24 017:110.428 - 0.053ms returns 0x00000000
TBE24 017:110.510 JLINK_ReadReg(FPS9)
TBE24 017:110.557 - 0.065ms returns 0x00000000
TBE24 017:110.603 JLINK_ReadReg(FPS10)
TBE24 017:110.640 - 0.054ms returns 0x00000000
TBE24 017:110.683 JLINK_ReadReg(FPS11)
TBE24 017:110.720 - 0.054ms returns 0x00000000
TBE24 017:110.764 JLINK_ReadReg(FPS12)
TBE24 017:110.800 - 0.053ms returns 0x00000000
TBE24 017:110.846 JLINK_ReadReg(FPS13)
TBE24 017:110.883 - 0.061ms returns 0x00000000
TBE24 017:110.993 JLINK_ReadReg(FPS14)
TBE24 017:111.049 - 0.075ms returns 0x00000000
TBE24 017:111.111 JLINK_ReadReg(FPS15)
TBE24 017:111.159 - 0.064ms returns 0x00000000
TBE24 017:111.203 JLINK_ReadReg(FPS16)
TBE24 017:111.248 - 0.062ms returns 0x00000000
TBE24 017:111.288 JLINK_ReadReg(FPS17)
TBE24 017:111.314 - 0.038ms returns 0x00000000
TBE24 017:111.346 JLINK_ReadReg(FPS18)
TBE24 017:111.371 - 0.037ms returns 0x00000000
TBE24 017:111.402 JLINK_ReadReg(FPS19)
TBE24 017:111.427 - 0.036ms returns 0x00000000
TBE24 017:111.458 JLINK_ReadReg(FPS20)
TBE24 017:111.483 - 0.037ms returns 0x00000000
TBE24 017:111.514 JLINK_ReadReg(FPS21)
TBE24 017:111.539 - 0.037ms returns 0x00000000
TBE24 017:111.571 JLINK_ReadReg(FPS22)
TBE24 017:111.596 - 0.037ms returns 0x00000000
TBE24 017:111.627 JLINK_ReadReg(FPS23)
TBE24 017:111.651 - 0.036ms returns 0x00000000
TBE24 017:111.683 JLINK_ReadReg(FPS24)
TBE24 017:111.707 - 0.036ms returns 0x00000000
